
**** 06/17/24 19:48:13 **** PSpice 23.1.0 (30 January 2024) *** ID# 0 ********

 ** Profile: "SCHEMATIC1-DC-DC Sim Profile"  [ c:\users\louwr\onedrive\desktop\altuim test\altuimtest\dc to dc conveter\dc to dc conv


 ****     CIRCUIT DESCRIPTION


******************************************************************************




** Creating circuit file "DC-DC Sim Profile.cir" 
** WARNING: THIS AUTOMATICALLY GENERATED FILE MAY BE OVERWRITTEN BY SUBSEQUENT SIMULATIONS

*Libraries: 
* Profile Libraries :
* Local Libraries :
* From [PSPICE NETLIST] section of C:\cds_spb_home\cdssetup\OrCAD_PSpiceTIPSpice_Install\23.1.0\PSpice.ini file:
.lib "nom_pspti.lib" 
.lib "nom.lib" 

*Analysis directives: 
.TRAN  0 6m  0 
.OPTIONS ADVCONV
.OPTIONS FILEMODELSEARCH
.PROBE64 V(alias(*)) I(alias(*)) W(alias(*)) D(alias(*)) NOISE(alias(*)) 
.INC "..\SCHEMATIC1.net" 



**** INCLUDING SCHEMATIC1.net ****
* source DC TO DC CONVETER
X_U1         INPUT OUTPUT OUTPUT N16775659 LM1084_ADJ_TRANS
R_R1         N16775659 OUTPUT  121 TC=0,0 
R_R2         0 N16775659  5k TC=0,0 
C_C1         0 OUTPUT  10u  TC=0,0 
C_C2         0 INPUT  10u  TC=0,0 
V_V1         INPUT 0 18Vdc

**** RESUMING "DC-DC Sim Profile.cir" ****
.END

**** 06/17/24 19:48:13 **** PSpice 23.1.0 (30 January 2024) *** ID# 0 ********

 ** Profile: "SCHEMATIC1-DC-DC Sim Profile"  [ c:\users\louwr\onedrive\desktop\altuim test\altuimtest\dc to dc conveter\dc to dc conv


 ****     INITIAL TRANSIENT SOLUTION       TEMPERATURE =   27.000 DEG C


******************************************************************************



 NODE   VOLTAGE     NODE   VOLTAGE     NODE   VOLTAGE     NODE   VOLTAGE


(INPUT)   18.0000  (OUTPUT)   16.5000 (X_U1.VXX)   16.5000                      

(X_U1.VYY)   16.5000                  (X_U1.VZZ)   16.5000                      

(N16775659)   16.1100                 (X_U1.U1_EN)    1.0000                    

(X_U1.N222524)   16.5000              (X_U1.N242982)   16.5000                  

(X_U1.U1_EN_OUT)    1.2500            (X_U1.U1_N05398)   52.9030                

(X_U1.U1_N08257)    1.2500            (X_U1.U1_N09745)   16.5000                

(X_U1.U1_N12664)     .1000            (X_U1.U1_N12783)    2.7500                

(X_U1.U1_N27716)   52.9030            (X_U1.X_U1_U2.1)    1.0000                

(X_U1.X_U1_U2.INM1)  -15.2500         (X_U1.X_U1_U2.INP1)    0.0000             

(X_U1.X_U1_U2.INP2)     .1000         




    VOLTAGE SOURCE CURRENTS
    NAME         CURRENT

    V_V1        -3.222E-03
    X_U1.V_U1_V4   0.000E+00
    X_U1.V_U1_V3   0.000E+00
    X_U1.X_F1.VF_F1   3.222E-03

    TOTAL POWER DISSIPATION   5.80E-02  WATTS



          JOB CONCLUDED

**** 06/17/24 19:48:13 **** PSpice 23.1.0 (30 January 2024) *** ID# 0 ********

 ** Profile: "SCHEMATIC1-DC-DC Sim Profile"  [ c:\users\louwr\onedrive\desktop\altuim test\altuimtest\dc to dc conveter\dc to dc conv


 ****     JOB STATISTICS SUMMARY


******************************************************************************



  Total job time (using Solver 1)   =         .39
